//Enable FPGA i2s Core
devmem 0x80002000 32 0x402
devmem 0x80002000 32 0x403

//Route I2C mux to codec
i2cset -y 0 0x70 0x0 0x20

//Codec Config
i2cset -y 0 0x3b 0x40 0x00 0x01 i
i2cset -y 0 0x3b 0x40 0x02 0x00 0xFD 0x00 0x0C 0x20 0x01 i
i2cset -y 0 0x3b 0x40 0x08 0x00 i
i2cset -y 0 0x3b 0x40 0x09 0x00 i
i2cset -y 0 0x3b 0x40 0x0A 0x01 i
i2cset -y 0 0x3b 0x40 0x0B 0x05 i
i2cset -y 0 0x3b 0x40 0x0C 0x01 i
i2cset -y 0 0x3b 0x40 0x0D 0x05 i
i2cset -y 0 0x3b 0x40 0x0E 0x00 i
i2cset -y 0 0x3b 0x40 0x0F 0x00 i
i2cset -y 0 0x3b 0x40 0x10 0x00 i
i2cset -y 0 0x3b 0x40 0x11 0x00 i
i2cset -y 0 0x3b 0x40 0x12 0x00 i
i2cset -y 0 0x3b 0x40 0x13 0x00 i
i2cset -y 0 0x3b 0x40 0x14 0x00 i
i2cset -y 0 0x3b 0x40 0x15 0x08 i
i2cset -y 0 0x3b 0x40 0x16 0x01 i
i2cset -y 0 0x3b 0x40 0x17 0x18 i
i2cset -y 0 0x3b 0x40 0x18 0x00 i
i2cset -y 0 0x3b 0x40 0x19 0x13 i
i2cset -y 0 0x3b 0x40 0x1A 0x00 i
i2cset -y 0 0x3b 0x40 0x1B 0x00 i
i2cset -y 0 0x3b 0x40 0x1C 0x21 i
i2cset -y 0 0x3b 0x40 0x1D 0x00 i
i2cset -y 0 0x3b 0x40 0x1E 0x41 i
i2cset -y 0 0x3b 0x40 0x1F 0x00 i
i2cset -y 0 0x3b 0x40 0x20 0x00 i
i2cset -y 0 0x3b 0x40 0x21 0x00 i
i2cset -y 0 0x3b 0x40 0x22 0x01 i
i2cset -y 0 0x3b 0x40 0x23 0xE7 i
i2cset -y 0 0x3b 0x40 0x24 0xE7 i
i2cset -y 0 0x3b 0x40 0x25 0x00 i
i2cset -y 0 0x3b 0x40 0x26 0x00 i
i2cset -y 0 0x3b 0x40 0x27 0xE4 i
i2cset -y 0 0x3b 0x40 0x28 0x08 i
i2cset -y 0 0x3b 0x40 0x29 0x03 i
i2cset -y 0 0x3b 0x40 0x2A 0x03 i
i2cset -y 0 0x3b 0x40 0x2B 0x00 i
i2cset -y 0 0x3b 0x40 0x2C 0x00 i
i2cset -y 0 0x3b 0x40 0x2D 0xAA i
i2cset -y 0 0x3b 0x40 0x2F 0xAA i
i2cset -y 0 0x3b 0x40 0x30 0x00 i
i2cset -y 0 0x3b 0x40 0x31 0x08 i
i2cset -y 0 0x3b 0x40 0x36 0x03 i
i2cset -y 0 0x3b 0x40 0xC0 0x00 i
i2cset -y 0 0x3b 0x40 0xC1 0x00 i
i2cset -y 0 0x3b 0x40 0xC2 0x00 i
i2cset -y 0 0x3b 0x40 0xC3 0x00 i
i2cset -y 0 0x3b 0x40 0xC4 0x00 i
i2cset -y 0 0x3b 0x40 0xC6 0x00 i
i2cset -y 0 0x3b 0x40 0xC7 0x00 i
i2cset -y 0 0x3b 0x40 0xC8 0x00 i
i2cset -y 0 0x3b 0x40 0xC9 0x00 i
i2cset -y 0 0x3b 0x40 0xD0 0x00 i
i2cset -y 0 0x3b 0x40 0xD1 0x00 i
i2cset -y 0 0x3b 0x40 0xD2 0x00 i
i2cset -y 0 0x3b 0x40 0xD3 0x00 i
i2cset -y 0 0x3b 0x40 0xD4 0x00 i
i2cset -y 0 0x3b 0x40 0xEB 0x01 i
i2cset -y 0 0x3b 0x40 0xF2 0x00 i
i2cset -y 0 0x3b 0x40 0xF3 0x00 i
i2cset -y 0 0x3b 0x40 0xF4 0x00 i
i2cset -y 0 0x3b 0x40 0xF5 0x00 i
i2cset -y 0 0x3b 0x40 0xF6 0x00 i
i2cset -y 0 0x3b 0x40 0xF7 0x00 i
i2cset -y 0 0x3b 0x40 0xF8 0x00 i
i2cset -y 0 0x3b 0x40 0xF9 0x7F i
i2cset -y 0 0x3b 0x40 0xFA 0x03 i
